# HZ S RI R 50
100000000 -0.9290988857572019 -0.19275536244240354
104000000 -0.92610562070248 0.004123823107423445
108000000 -0.8948110664943122 0.15281831834493478
112000000 -0.8364809776875832 0.3004739362164826
116000000 -0.7677820857588197 0.46069116136045085
120000000 -0.6263556642015421 0.6313739319123451
124000000 -0.37139074956545765 0.7747726171338464
128000000 0.003886159974455937 0.7753424267372203
132000000 0.37220905621073114 0.49114695718951623
136000000 0.3787952262470292 -0.005153131112243744
140000000 0.07144093442394475 -0.24962268041150412
144000000 -0.14411017116919175 -0.06406362936715372
148000000 0.04280222654398014 -0.011536881897242047
152000000 0.0227683896849872 -0.2280274038635434
156000000 0.3287309237835945 -0.40404750957767116
160000000 -0.26231687686362115 -0.7892036978268216
164000000 -0.6398343499084186 -0.6162562794387948
168000000 -0.8250039251277468 -0.3719765784698151
172000000 -0.8911834757023188 -0.10656987300796256
176000000 -0.8166137067886373 0.19191496643745165
180000000 -0.36258446398584404 0.3241437143050628
184000000 -0.4875826246416234 -0.20348176498424864
188000000 -0.7720307437900817 0.022061831899365086
192000000 -0.7867222313887295 0.25499599669247136
196000000 -0.6958521508068864 0.4752759537074218
200000000 -0.5173810279232188 0.6492116939286631
204000000 -0.24826062787805325 0.750208421724225
208000000 0.0931841187570251 0.7300409877282812
212000000 0.4510664877396701 0.5029845058096221
216000000 0.6353022860084862 0.030734764549723653
220000000 0.45574660999612765 -0.4615176001747985
224000000 0.05763476005909839 -0.6896877417682279
228000000 -0.29594422136852927 -0.6683493081438712
232000000 -0.5404527325562747 -0.5376553462368417
236000000 -0.6934812174006154 -0.3630317731184035
240000000 -0.7603984373649694 -0.15041111471501376
244000000 -0.7029507890770775 0.061297638313078696
248000000 -0.49830275091699716 0.1303918945808062
252000000 -0.44095776695634165 -0.022658313861779775
256000000 -0.5834352308937318 -0.08875607279901562
260000000 -0.7706234461387926 0.03490053444567156
264000000 -0.7951156372753003 0.28725198079264735
268000000 -0.6839179127990284 0.5029522126696326
272000000 -0.48708755599959297 0.6647251001439662
276000000 -0.2100668060650766 0.7521540992752921
280000000 0.14277828050929334 0.7005735337092159
284000000 0.4792068431492058 0.412931220743374
288000000 0.5662625470611461 -0.08176117674955138
292000000 0.31306187574152006 -0.4784510065212713
296000000 -0.031216662437768047 -0.6343953641203285
300000000 -0.3668825139274478 -0.6282684610106809
304000000 -0.6266696110970851 -0.4854679239305982
308000000 -0.7541341565479286 -0.22836584783067002
312000000 -0.7749298915636819 0.01020932383156217
316000000 -0.6586626368647124 0.25057702429309314
320000000 -0.32197870009001184 0.36933726014320684
324000000 -0.03352143954057606 -0.09381871453767021
328000000 -0.5396844286026183 -0.3063553365742814
332000000 -0.7654615269924129 -0.022222391635598016
336000000 -0.7522819178096009 0.2502049603628397
340000000 -0.6206601877174868 0.45753987555390163
344000000 -0.3961970507087767 0.6015817045084648
348000000 -0.07920539722627795 0.6060905518652129
352000000 0.20736522042903116 0.3926100214357527
356000000 0.29368898462028775 0.023969647409490716
360000000 0.11038677096992415 -0.30722482992074
364000000 -0.2124199170979522 -0.3979153096780502
368000000 -0.4550760270004196 -0.29450598848514836
372000000 -0.5789604892654262 -0.09874537436204936
376000000 -0.545974313981177 0.128038486584301
380000000 -0.35083538753933663 0.2593134361672617
384000000 -0.11139650484748607 0.16751311017061998
388000000 -0.06228957229579934 -0.10242650838397847
392000000 -0.25135960910415067 -0.28554983289063285
396000000 -0.4860536271213558 -0.2679091857326161
400000000 -0.622343740067282 -0.13092023308283032
404000000 -0.6591932472047916 0.03546612121607799
408000000 -0.6097851998839129 0.16471018385966332
412000000 -0.5391664727865847 0.23374167573944346
416000000 -0.4840392311150371 0.2929100139709138
420000000 -0.3835334803782583 0.3477411111341959
424000000 -0.266290253893867 0.34651815325385854
428000000 -0.15591923319040915 0.286504161576334
432000000 -0.10675861576668692 0.1801955028354881
436000000 -0.12492143809053914 0.10136828183984076
440000000 -0.15559922176526206 0.07398183949735337
444000000 -0.1451972901657967 0.05890611475247991
448000000 -0.11687121823824745 0.013534797201434731
452000000 -0.11493426790698337 -0.07087464971846699
456000000 -0.16677257589440175 -0.16200426110866328
460000000 -0.2806676928095389 -0.2130185124772509
464000000 -0.3786589256682517 -0.15234396676879483
468000000 -0.3436474597395211 -0.11907733522532901
472000000 -0.42574302179205903 -0.27359134174301375
476000000 -0.6973017684464828 -0.16736983432684413
480000000 -0.7079531729644446 0.09961101096779423
484000000 -0.5555677606792347 0.04999251607098472
488000000 -0.7085530259859469 0.18684865787316346
492000000 -0.6517073461970019 0.3824982140483247
496000000 -0.5132340113378678 0.5424293554635616
500000000 -0.3027587996535726 0.6412021548805033
