# HZ S RI R 50
390000000 -0.037427346379486276 0.24592095594823596
390700000 -0.025032458248974758 0.23150982127942943
391400000 -0.01614225147328867 0.21801688159742252
392100000 -0.011448323819953584 0.2057300825960087
392800000 -0.0059090257113365565 0.19543473748072784
393500000 -0.0038728187124788724 0.1871027473289493
394200000 -0.001486611791548358 0.1805382770754566
394900000 0.0010523448797453675 0.17513267028929894
395600000 0.006111469559949256 0.1720229791228453
396300000 0.010921183420507007 0.1689900411798684
397000000 0.016157989401241166 0.16623001282184097
397700000 0.023411330499841933 0.16301348195754342
398400000 0.028390882792733968 0.15905498410051228
399100000 0.0348570702632878 0.15807088018789983
399800000 0.04183359562458407 0.15451384254509817
400500000 0.050511263444146796 0.14965991100895173
401200000 0.05899140722601422 0.14465612865949057
401900000 0.0647541363915446 0.13924757629851053
402600000 0.07446403050071365 0.12995482599869376
403300000 0.08013138029157611 0.12149893207886713
404000000 0.08774169050386274 0.11026674116449366
404700000 0.09402145176497384 0.10007794891010746
405400000 0.09571488509933175 0.08622075730502221
406100000 0.09638972923522654 0.07389043578786887
406800000 0.0934593087220169 0.06548125523171014
407500000 0.09160253017652835 0.05066261712082085
408200000 0.08625741829358943 0.03671525523023684
408900000 0.07588193689529571 0.028133338183604136
409600000 0.07169074166931609 0.017842314261414565
410300000 0.05971076630508627 0.01233434400934974
411000000 0.04825540465359208 0.008115937816505365
411700000 0.03745402859090913 0.0055301673828834575
412400000 0.027083515852565125 0.006540576529677743
413100000 0.016864997072051854 0.008302265238345737
413800000 0.007823956908931739 0.012499545461328795
414500000 -0.004324435666149148 0.021167158130654742
415200000 -0.007031424146394669 0.029883532742287392
415900000 -0.01156125875464181 0.03611324519304329
416600000 -0.011044476482743558 0.04623455747142119
417300000 -0.01038610204385237 0.05331071602535363
418000000 -0.006781078186484025 0.06483412402265405
418700000 -0.003217842910856143 0.07020783731854514
419400000 0.0033357725507434546 0.0783104360002554
420100000 0.01314051914455939 0.0807051504190895
420800000 0.021957251332132877 0.08587614790789884
421500000 0.03158039381068523 0.08614661455378207
422200000 0.039014790659351914 0.08425057342697397
422900000 0.046123714839575204 0.07844620206769724
423600000 0.05407852467839773 0.0758823523157638
424300000 0.05663136314348422 0.07138126017814748
425000000 0.06205769563843434 0.06521312250354695
425700000 0.06313314972000438 0.058075496829375996
426400000 0.06569602202027061 0.053712602824599165
427100000 0.062135210351625225 0.04872841096885446
427800000 0.06234730226740107 0.04494207446198767
428500000 0.05780842046446038 0.044018838492396774
429200000 0.05645682022105329 0.040412686608148535
429900000 0.05247517960098837 0.04171286833343542
430600000 0.04929962222265612 0.04640620476792129
431300000 0.047691474875445665 0.051016544553645196
432000000 0.049689315828823244 0.054337328273574514
432700000 0.05305573395116618 0.06266043178191893
433400000 0.05727464904199464 0.06646505385219736
434100000 0.06417915351879958 0.07532322834776513
434800000 0.07303454329074034 0.07699934931174963
435500000 0.0794783256515606 0.0803897817538655
436200000 0.09445212519278302 0.07754925434094502
436900000 0.10256024565929127 0.07890015693867326
437600000 0.11489600632684872 0.07511105551528525
438300000 0.1273720522523162 0.07079920931798826
439000000 0.1378984515855078 0.0659604169449196
439700000 0.1488198894023494 0.060540719798831265
440400000 0.15847161073485186 0.053551502713202276
441100000 0.17368845414379003 0.04223947178796926
441800000 0.18299731831656138 0.0335598355548703
442500000 0.19494977198265945 0.01825704153181048
443200000 0.20697974956565318 0.005765070719811932
443900000 0.2167589885499277 -0.00971955528398146
444600000 0.22040567749850304 -0.02995460776438059
445300000 0.22268295075058914 -0.04910265851895762
446000000 0.22829710700309278 -0.0696813974670698
446700000 0.22887825039069548 -0.09076090615919788
447400000 0.22588476511258415 -0.11766383991842302
448100000 0.21870977147342974 -0.1397419743620031
448800000 0.2131258426179844 -0.15976011827337147
449500000 0.20054040300735546 -0.18259751727474222
450200000 0.18737284883972358 -0.2013344867404078
450900000 0.17670896308777267 -0.21667523540118336
451600000 0.15574989493576644 -0.23577843520196234
452300000 0.13980727156824263 -0.24309243910453449
453000000 0.12129550618604419 -0.25761141136590365
453700000 0.10372877582684403 -0.2664452802262754
454400000 0.08592122858006426 -0.2767517594597516
455100000 0.06668578991932742 -0.2772502546228554
455800000 0.0466090283365951 -0.2850564718777738
456500000 0.022976756016909124 -0.2902723308447442
457200000 0.011002206178132449 -0.28746014161034344
457900000 -0.02351567805216317 -0.2951102114277567
458600000 -0.044339302003733434 -0.2907990172490942
459300000 -0.0644534229974344 -0.2890935690427865
460000000 -0.085808141589036 -0.2825015778262525
