# HZ S RI R 50
130000000 0.3952937844632134 0.5595646197579527
130300000 0.4160480225683322 0.5321216057872209
130600000 0.43539139305065694 0.5025848677965943
130900000 0.45295672759287514 0.4720253341647299
131200000 0.4682213575671529 0.4399801678272726
131500000 0.4813536377727338 0.4065241794653336
131800000 0.49109475957378884 0.3736739623352181
132100000 0.4990082072910771 0.3398086685885292
132400000 0.5044100320346596 0.3058198481420539
132700000 0.5070734054999041 0.2715535674850032
133000000 0.5072924530742233 0.23849589509106733
133300000 0.505116213132381 0.20523203701604448
133600000 0.5007046325130452 0.17355741036279435
133900000 0.49486584191058713 0.14196232974352985
134200000 0.4867770325524699 0.11167446969893897
134500000 0.4771713511467608 0.08206621669708106
134800000 0.46570958909402854 0.053044898817786595
135100000 0.4519500172731901 0.02525425253049173
135400000 0.43648629046667214 -0.001702329641488479
135700000 0.41895837050115564 -0.027632992205700705
136000000 0.39923853185315655 -0.05109152392362631
136300000 0.37750290648053936 -0.07256792340986186
136600000 0.35445243572355534 -0.09244427841384796
136900000 0.32944021218501734 -0.1099480392497659
137200000 0.3035907841245642 -0.12457352323233914
137500000 0.27722717906711214 -0.13682881495840188
137800000 0.2492736848772711 -0.1460042672991224
138100000 0.22166725425519143 -0.1519450535086668
138400000 0.19432820789179914 -0.15468650712459292
138700000 0.16785109674731344 -0.15424044793815406
139000000 0.14267837212635723 -0.14907904485765539
139300000 0.12021247872572596 -0.1419991383036821
139600000 0.10122978788905708 -0.13324670837578212
139900000 0.08475306267476349 -0.1247045010358178
140200000 0.06968006210654899 -0.11698272115209453
140500000 0.05419797085470401 -0.10873017603871682
140800000 0.039665061723585665 -0.0994097489241564
141100000 0.025782649742189755 -0.08852485271728887
141400000 0.013899205557825147 -0.07652880109816966
141700000 0.0039115683499018564 -0.06376189223100043
142000000 -0.004330219478867881 -0.05108222515972256
142300000 -0.006794692642037758 -0.03864934236199623
142600000 -0.006700530470595877 -0.026073659770640616
142900000 -0.009097586499176545 -0.01429795110656329
143200000 -0.01281870726194129 -0.0020424077919337547
143500000 -0.014509795123541204 0.008942884825598432
143800000 -0.01400345778299668 0.019883414027043453
144100000 -0.012489268550512325 0.02988641469935887
144400000 -0.010230919871420517 0.038633861608976736
144700000 -0.004962972486435093 0.04670857658790644
145000000 -0.000997237364757712 0.05363140881346455
145300000 0.00043762781136060474 0.0598089475985355
145600000 8.644539296733484e-05 0.06528236221065818
145900000 -6.004381943708084e-05 0.07018116877205513
146200000 -7.884787433016754e-05 0.0741665859629448
146500000 0.0013305183038250172 0.07810898337489296
146800000 0.0031039159038436406 0.0813463467134245
147100000 0.005218211040922636 0.08381059725952908
147400000 0.008386098739416962 0.08601965108750764
147700000 0.010794292829870399 0.08758494449922688
148000000 0.011917797796560848 0.08938274905872784
148300000 0.012005076658991348 0.09072946866844699
148600000 0.011821590929097937 0.09257864821676469
148900000 0.010910852029629414 0.09339552799056977
149200000 0.008677902501235615 0.09467242702113565
149500000 0.0057727041194537134 0.09651088995200158
149800000 0.0018608936075901516 0.09896559606264964
150100000 -0.0037269040856906612 0.10236503106705934
150400000 -0.009982622974226597 0.10742370663760957
150700000 -0.016990499607308147 0.11406142505567843
151000000 -0.025076373203925965 0.12388438605591638
151300000 -0.033449113635589355 0.1358617646472648
151600000 -0.041070151900205014 0.1509434300353447
151900000 -0.047794125046053154 0.1691769864680627
152200000 -0.052785985873177316 0.1902812968903588
152500000 -0.05570532703153728 0.21460564962223294
152800000 -0.05595673942519587 0.24140943660343048
153100000 -0.05248731407280021 0.2704443904526137
153400000 -0.045379085253321336 0.3018495174215021
153700000 -0.033459408537378894 0.334938861656207
154000000 -0.016434018960789793 0.3698894501834857
154300000 0.006593134917311004 0.40555551364197473
154600000 0.036578816871289895 0.4415302865147977
154900000 0.0740952758657595 0.47532339813434515
155200000 0.11900642209657997 0.506595120861361
155500000 0.1713737414281683 0.5321887210610893
155800000 0.23035712620110801 0.5499144629266463
156100000 0.29343787201408067 0.5588162143061969
156400000 0.359026539874029 0.5575762516451352
156700000 0.4245590027163724 0.546167203740652
157000000 0.48775050638246137 0.5245303619475647
157300000 0.5465651063551613 0.4948558987639466
157600000 0.5999835686295428 0.4579223038227232
157900000 0.6473690805053367 0.4159721024330092
158200000 0.6882523400557473 0.37034708156419516
158500000 0.7229920463274083 0.32203087580387263
158800000 0.7520013923824075 0.27222074340299757
159100000 0.7750132539870048 0.22229476516915697
159400000 0.7935162411416636 0.17231338497946863
159700000 0.807229254555953 0.12283852226298828
160000000 0.8172895549565322 0.07411028466586304
